
**** 10/21/19 00:17:39 ****** PSpice 17.2.0 (March 2016) ****** ID# 0 ********

 ** Profile: "SCHEMATIC1-7_78"  [ D:\On Editing\Sophomore\VE215,Intro to Circuits\7_78-PSpiceFiles\SCHEMATIC1\7_78.sim ] 


 ****     CIRCUIT DESCRIPTION


******************************************************************************




** Creating circuit file "7_78.cir" 
** WARNING: THIS AUTOMATICALLY GENERATED FILE MAY BE OVERWRITTEN BY SUBSEQUENT SIMULATIONS

*Libraries: 
* Profile Libraries :
* Local Libraries :
* From [PSPICE NETLIST] section of E:\Cadence\SPB_Data\cdssetup\OrCAD_PSpice\17.2.0\PSpice.ini file:
.lib "nom.lib" 

*Analysis directives: 
.TRAN  0 2 0 
.OPTIONS ADVCONV
.PROBE64 V(alias(*)) I(alias(*)) W(alias(*)) D(alias(*)) NOISE(alias(*)) 
.INC "..\SCHEMATIC1.net" 



**** INCLUDING SCHEMATIC1.net ****
* source 7_78
V_V1         N00142 0 108Vdc
R_R1         N00142 N00149  3 TC=0,0 
R_R2         N00149 0  6 TC=0,0 
R_R3         N00149 N00153  4 TC=0,0 
L_L1         N00153 0  2 IC=7.714 

**** RESUMING 7_78.cir ****
.END

**** 10/21/19 00:17:39 ****** PSpice 17.2.0 (March 2016) ****** ID# 0 ********

 ** Profile: "SCHEMATIC1-7_78"  [ D:\On Editing\Sophomore\VE215,Intro to Circuits\7_78-PSpiceFiles\SCHEMATIC1\7_78.sim ] 


 ****     INITIAL TRANSIENT SOLUTION       TEMPERATURE =   27.000 DEG C


******************************************************************************



 NODE   VOLTAGE     NODE   VOLTAGE     NODE   VOLTAGE     NODE   VOLTAGE


(N00142)  108.0000 (N00149)   56.5720 (N00153)   25.7160 




    VOLTAGE SOURCE CURRENTS
    NAME         CURRENT

    V_V1        -1.714E+01

    TOTAL POWER DISSIPATION   1.85E+03  WATTS



          JOB CONCLUDED

**** 10/21/19 00:17:39 ****** PSpice 17.2.0 (March 2016) ****** ID# 0 ********

 ** Profile: "SCHEMATIC1-7_78"  [ D:\On Editing\Sophomore\VE215,Intro to Circuits\7_78-PSpiceFiles\SCHEMATIC1\7_78.sim ] 


 ****     JOB STATISTICS SUMMARY


******************************************************************************



  License check-out time            =        1.69
  Total job time (using Solver 1)   =        0.00
